# HZ S RI R 50
141000000 -0.17787446 -0.303795963
141100000 -0.18362993 -0.293740957
141200000 -0.188941329 -0.283199548
141300000 -0.193891912 -0.272616684
141400000 -0.198602214 -0.261814355
141500000 -0.202737659 -0.250991523
141600000 -0.206234142 -0.239726558
141700000 -0.209310621 -0.228440269
141800000 -0.212088629 -0.217247098
141900000 -0.214189335 -0.205640241
142000000 -0.215749695 -0.194065451
142100000 -0.216692343 -0.182577714
142200000 -0.216859206 -0.17099905
142300000 -0.216625243 -0.15987277
142400000 -0.215648993 -0.148632839
142500000 -0.21438001 -0.137781858
142600000 -0.212171971 -0.127157196
142700000 -0.209855899 -0.116883836
142800000 -0.207320347 -0.106875874
142900000 -0.204024851 -0.096980147
143000000 -0.20058313 -0.087490089
143100000 -0.196314632 -0.078839346
143200000 -0.192006558 -0.070561595
143300000 -0.187538132 -0.06265334
143400000 -0.18279685 -0.05462699
143500000 -0.177766397 -0.047274682
143600000 -0.172267183 -0.040618035
143700000 -0.166937544 -0.034072626
143800000 -0.161686673 -0.027598964
143900000 -0.155997514 -0.021505242
144000000 -0.149999886 -0.015877131
144100000 -0.144229158 -0.010753251
144200000 -0.138638019 -0.005811363
144300000 -0.132990345 -0.000715305
144400000 -0.127190664 0.003779968
144500000 -0.121435001 0.008288216
144600000 -0.115711681 0.012164183
144700000 -0.109993681 0.01640252
144800000 -0.104200303 0.020142229
144900000 -0.097911223 0.024097859
145000000 -0.092293135 0.027754887
145100000 -0.08617185 0.031115004
145200000 -0.080149225 0.034671183
145300000 -0.073609918 0.037952233
145400000 -0.0671053 0.041107513
145500000 -0.060601279 0.044293858
145600000 -0.054129872 0.046839248
145700000 -0.047303006 0.049439452
145800000 -0.039870083 0.051997169
145900000 -0.032721795 0.053727366
146000000 -0.025277527 0.055608294
146100000 -0.017903756 0.057375788
146200000 -0.010253518 0.058068212
146300000 -0.002344161 0.058896571
146400000 0.005511241 0.05925564
146500000 0.013046568 0.059332393
146600000 0.020686635 0.058994472
146700000 0.028272718 0.058465819
146800000 0.035932287 0.057446237
146900000 0.043287884 0.055927429
147000000 0.050609465 0.054109051
147100000 0.057783309 0.052253145
147200000 0.064923338 0.050346106
147300000 0.071825459 0.047784432
147400000 0.078420355 0.045201312
147500000 0.085212349 0.04257575
147600000 0.091730453 0.039783552
147700000 0.098180271 0.037080191
147800000 0.1047495 0.034001883
147900000 0.111298583 0.030641207
148000000 0.117809377 0.027385786
148100000 0.124325387 0.023804303
148200000 0.131158843 0.019939549
148300000 0.137887731 0.015489036
148400000 0.144450753 0.01104789
148500000 0.150957912 0.006209081
148600000 0.157514274 0.001035967
148700000 0.164268329 -0.00459113
148800000 0.170591786 -0.010629532
148900000 0.176734283 -0.016989609
149000000 0.183186411 -0.023436944
149100000 0.189087733 -0.030482564
149200000 0.195106044 -0.03815959
149300000 0.200636893 -0.04639472
149400000 0.205978065 -0.054599594
149500000 0.211131453 -0.063398025
149600000 0.215874642 -0.072434149
149700000 0.220075264 -0.082156173
149800000 0.223742201 -0.092401973
149900000 0.227358341 -0.102207273
150000000 0.230545535 -0.112719394
150100000 0.233237057 -0.123716808
150200000 0.235411718 -0.13485831
150300000 0.236872524 -0.14613682
150400000 0.237667754 -0.158018603
150500000 0.238133653 -0.169639796
150600000 0.23815149 -0.181506991
150700000 0.237337708 -0.19355078
150800000 0.23554264 -0.205291464
150900000 0.233472347 -0.217320337
151000000 0.231178775 -0.228991568
